# vsim -vopt work.hvl_top work.hdl_top -voptargs="+acc=npr" -sv_seed random -assertdebug "+UVM_TESTNAME=i3c_fifo_full_write_test" "+UVM_VERBOSITY=UVM_MEDIUM" "+define+" -l i3c_fifo_full_write_test/i3c_fifo_full_write_test.log -sva -coverage -c -do "log -r /*; add wave -r /*; coverage save -onexit -assert -directive -cvg -codeAll i3c_fifo_full_write_test/i3c_fifo_full_write_test_coverage.ucdb; run -all; exit" -wlf i3c_fifo_full_write_test/waveform.wlf 
# Start time: 12:01:49 on Apr 30,2026
# ** Note: (vsim-8009) Loading existing optimized design _opt
# //  Questa Sim
# //  Version 10.6c linux Jul 25 2017
# //
# //  Copyright 1991-2017 Mentor Graphics Corporation
# //  All Rights Reserved.
# //
# //  QuestaSim and its associated documentation contain trade
# //  secrets and commercial or financial information that are the property of
# //  Mentor Graphics Corporation and are privileged, confidential,
# //  and exempt from disclosure under the Freedom of Information Act,
# //  5 U.S.C. Section 552. Furthermore, this information
# //  is prohibited from disclosure under the Trade Secrets Act,
# //  18 U.S.C. Section 1905.
# //
# Loading sv_std.std
# Loading work.apb_master_driver_bfm(fast)
# Loading work.apb_master_monitor_bfm(fast)
# Loading work.apb_global_pkg(fast)
# Loading mtiUvm.uvm_pkg
# Loading work.apb_master_pkg(fast)
# Loading work.i3c_target_driver_bfm(fast)
# Loading work.i3c_target_monitor_bfm(fast)
# Loading work.i3c_globals_pkg(fast)
# Loading work.i3c_target_pkg(fast)
# Loading work.i3c_controller_driver_bfm(fast)
# Loading work.i3c_controller_monitor_bfm(fast)
# Loading work.i3c_controller_pkg(fast)
# Loading work.i3c_env_pkg(fast)
# Loading work.i3c_target_seq_pkg(fast)
# Loading work.apb_master_seq_pkg(fast)
# Loading work.i3c_ral_virtual_seq_pkg(fast)
# Loading work.i3c_controller_seq_pkg(fast)
# Loading work.i3c_virtual_seq_pkg(fast)
# Loading work.i3c_test_pkg(fast)
# Loading work.hvl_top(fast)
# Loading work.hdl_top_sv_unit(fast)
# Loading work.hdl_top(fast)
# Loading work.apb_if_sv_unit(fast)
# Loading work.apb_if(fast)
# Loading work.i3c_if(fast)
# Loading work.i3c_wrapper_sv_unit(fast)
# Loading work.apb_i3c_wrapper(fast)
# Loading work.I3C_TOP(fast)
# Loading work.i3c_reg_interface(fast)
# Loading work.i3c_cmd_ctrl(fast)
# Loading work.i3c_Tx_FIFO(fast)
# Loading work.i3c_Rx_FIFO(fast)
# Loading work.i3c_sdr_fsm(fast)
# Loading work.i3c_daa_fsm(fast)
# Loading work.i3c_device_table(fast)
# Loading work.i3c_bit_engine(fast)
# Loading work.i3c_scl_gen(fast)
# Loading work.apb_master_agent_bfm(fast)
# Loading work.apb_master_driver_bfm_sv_unit(fast)
# Loading work.apb_master_driver_bfm(fast)
# Loading work.apb_master_monitor_bfm_sv_unit(fast)
# Loading work.apb_master_monitor_bfm(fast)
# Loading work.i3c_controller_agent_bfm(fast)
# Loading work.i3c_controller_driver_bfm_sv_unit(fast)
# Loading work.i3c_controller_driver_bfm(fast)
# Loading work.i3c_controller_monitor_bfm_sv_unit(fast)
# Loading work.i3c_controller_monitor_bfm(fast)
# Loading work.i3c_target_agent_bfm(fast)
# Loading work.i3c_target_driver_bfm_sv_unit(fast)
# Loading work.i3c_target_driver_bfm(fast)
# Loading work.i3c_target_monitor_bfm_sv_unit(fast)
# Loading work.i3c_target_monitor_bfm(fast)
# Loading mtiUvm.questa_uvm_pkg(fast)
# ** Warning: (vsim-3839) ../../src/hdl_top/target_agent_bfm/i3c_target_agent_bfm.sv(11): Variable '/hdl_top/intf_target/scl_o', driven via a port connection, is multiply driven. See ../../src/hdl_top/controller_agent_bfm/i3c_controller_agent_bfm.sv(13).
#    Time: 0 ns  Iteration: 0  Instance: /hdl_top/i3c_target_agent_bfm[0]/i3c_target_agent_bfm_h/i3c_target_drv_bfm_h File: ../../src/hdl_top/target_agent_bfm/i3c_target_driver_bfm.sv
# ** Warning: (vsim-3839) ../../src/hdl_top/target_agent_bfm/i3c_target_agent_bfm.sv(11): Variable '/hdl_top/intf_target/scl_oen', driven via a port connection, is multiply driven. See ../../src/hdl_top/controller_agent_bfm/i3c_controller_agent_bfm.sv(13).
#    Time: 0 ns  Iteration: 0  Instance: /hdl_top/i3c_target_agent_bfm[0]/i3c_target_agent_bfm_h/i3c_target_drv_bfm_h File: ../../src/hdl_top/target_agent_bfm/i3c_target_driver_bfm.sv
# ** Warning: (vsim-3839) ../../src/hdl_top/target_agent_bfm/i3c_target_agent_bfm.sv(11): Variable '/hdl_top/intf_target/sda_o', driven via a port connection, is multiply driven. See ../../src/hdl_top/controller_agent_bfm/i3c_controller_agent_bfm.sv(13).
#    Time: 0 ns  Iteration: 0  Instance: /hdl_top/i3c_target_agent_bfm[0]/i3c_target_agent_bfm_h/i3c_target_drv_bfm_h File: ../../src/hdl_top/target_agent_bfm/i3c_target_driver_bfm.sv
# ** Warning: (vsim-3839) ../../src/hdl_top/target_agent_bfm/i3c_target_agent_bfm.sv(11): Variable '/hdl_top/intf_target/sda_oen', driven via a port connection, is multiply driven. See ../../src/hdl_top/controller_agent_bfm/i3c_controller_agent_bfm.sv(13).
#    Time: 0 ns  Iteration: 0  Instance: /hdl_top/i3c_target_agent_bfm[0]/i3c_target_agent_bfm_h/i3c_target_drv_bfm_h File: ../../src/hdl_top/target_agent_bfm/i3c_target_driver_bfm.sv
# Loading /tools/mentor/questasim_10.6c/questasim/uvm-1.1d/linux/uvm_dpi.so
# Sv_Seed = 3934221134
# log -r /*
#  add wave -r /*
#  coverage save -onexit -assert -directive -cvg -codeAll i3c_fifo_full_write_test/i3c_fifo_full_write_test_coverage.ucdb
#  run -all
# ----------------------------------------------------------------
# UVM-1.1d
# (C) 2007-2013 Mentor Graphics Corporation
# (C) 2007-2013 Cadence Design Systems, Inc.
# (C) 2006-2013 Synopsys, Inc.
# (C) 2011-2013 Cypress Semiconductor Corp.
# ----------------------------------------------------------------
# 
#   ***********       IMPORTANT RELEASE NOTES         ************
# 
#   You are using a version of the UVM library that has been compiled
#   with `UVM_NO_DEPRECATED undefined.
#   See http://www.eda.org/svdb/view.php?id=3313 for more details.
# 
#   You are using a version of the UVM library that has been compiled
#   with `UVM_OBJECT_MUST_HAVE_CONSTRUCTOR undefined.
#   See http://www.eda.org/svdb/view.php?id=3770 for more details.
# 
#       (Specify +UVM_NO_RELNOTES to turn off this notice)
# 
# UVM_INFO verilog_src/questa_uvm_pkg-1.2/src/questa_uvm_pkg.sv(215) @ 0: reporter [Questa UVM] QUESTA_UVM-1.2.3
# UVM_INFO verilog_src/questa_uvm_pkg-1.2/src/questa_uvm_pkg.sv(217) @ 0: reporter [Questa UVM]  questa_uvm::init(+struct)
# UVM_INFO @ 0: reporter [RNTST] Running test i3c_fifo_full_write_test...
# HDL TOP
# UVM_INFO ../../src/hdl_top/apb_master_agent_bfm/apb_master_agent_bfm.sv(17) @ 0: reporter [apb master agent bfm] APB MASTER AGENT BFM
# UVM_INFO ../../src/hdl_top/apb_master_agent_bfm/apb_master_driver_bfm.sv(55) @ 0: reporter [APB_MASTER_DRIVER_BFM] APB_MASTER_DRIVER_BFM
# UVM_INFO ../../src/hdl_top/apb_master_agent_bfm/apb_master_monitor_bfm.sv(47) @ 0: reporter [APB_MASTER_MONITOR_BFM] APB MASTER MONITOR BFM
# I3C_CONTROLLER_DRIVER_BFM
# I3C_CONTROLLER_MONITOR_BFM
# controller Agent BFM
# I3C_TARGET_DRIVER_BFM
# target Monitor BFM
# DEBUG_MSHA :: drv_str = i3c_target_driver_bfm_0
# DEBUG_MSHA :: mon_str = i3c_target_monitor_bfm_0
# target Agent BFM
# UVM_INFO ../../src/hvl_top/test/i3c_base_test.sv(67) @ 0: uvm_test_top [i3c_fifo_full_write_test] i3c_controller_agent_cfg = 
#  ----------------------------------------------------------------------------
# Name                           Type                         Size  Value     
# ----------------------------------------------------------------------------
# i3c_controller_agent_cfg_h[0]  i3c_controller_agent_config  -     @526      
#   isActive                     string                       10    UVM_ACTIVE
#   no_of_targets                integral                     32    'd1       
#   dataTransferDirection        string                       9     MSB_FIRST 
#   primary_prescalar            integral                     3     'd1       
#   secondary_prescalar          integral                     3     'd0       
#   clockRateDividerValue        integral                     32    'd4       
#   hasCoverage                  string                       4     TRUE      
# ----------------------------------------------------------------------------
# 
# UVM_INFO ../../src/hvl_top/test/i3c_base_test.sv(83) @ 0: uvm_test_top [i3c_fifo_full_write_test] i3c_target_agent_cfg = 
#  ------------------------------------------------------------------------
# Name                       Type                     Size  Value         
# ------------------------------------------------------------------------
# i3c_target_agent_cfg_h[0]  i3c_target_agent_config  -     @531          
#   isActive                 string                   10    UVM_ACTIVE    
#   dataTransferDirection    string                   9     MSB_FIRST     
#   hasCoverage              string                   4     TRUE          
#   targetAddress            integral                 7     'h68          
#   target_id                integral                 32    'd0           
#   daa_accept_address       integral                 1     'b1           
#   pid                      integral                 48    'haabbccddeeff
#   bcr                      integral                 8     'h0           
#   dcr                      integral                 8     'hc2          
# ------------------------------------------------------------------------
# 
# UVM_INFO ../../src/hvl_top/test/i3c_base_test.sv(87) @ 0: uvm_test_top [i3c_fifo_full_write_test] i3c_env_cfg = 
#  ----------------------------------------------------
# Name                     Type            Size  Value
# ----------------------------------------------------
# i3c_env_cfg_h            i3c_env_config  -     @508 
#   has_scoreboard         integral        1     1    
#   has_virtual_sequencer  integral        1     1    
#   no_of_controllers      integral        32    'd1  
#   no_of_targets          integral        32    'd1  
#   has_daa                integral        1     'd0  
#   no_of_daa_devices      integral        32    'd0  
# ----------------------------------------------------
# 
# UVM_INFO ../../src/hvl_top/env/i3c_scoreboard.sv(99) @ 0: uvm_test_top.i3c_env_h.i3c_scoreboard_h [SB_DAA_INIT] Loaded expected device[0]: PID=0xaabbccddeeff BCR=0x0 DCR=0xc2
# UVM_INFO @ 0: reporter [UVMTOP] UVM testbench topology:
# ---------------------------------------------------------------------------------
# Name                              Type                                Size  Value
# ---------------------------------------------------------------------------------
# uvm_test_top                      i3c_fifo_full_write_test            -     @477 
#   i3c_env_h                       i3c_env                             -     @509 
#     apb_master_agent_h            apb_master_agent                    -     @542 
#       apb_master_cov_h            apb_master_coverage                 -     @868 
#         analysis_imp              uvm_analysis_imp                    -     @875 
#       apb_master_drv_proxy_h      apb_master_driver_proxy             -     @721 
#         rsp_port                  uvm_analysis_port                   -     @736 
#         seq_item_port             uvm_seq_item_pull_port              -     @728 
#       apb_master_mon_proxy_h      apb_master_monitor_proxy            -     @853 
#         apb_master_analysis_port  uvm_analysis_port                   -     @860 
#       apb_master_seqr_h           apb_master_sequencer                -     @744 
#         rsp_export                uvm_analysis_export                 -     @751 
#         seq_item_export           uvm_seq_item_pull_imp               -     @845 
#         arbitration_queue         array                               0     -    
#         lock_queue                array                               0     -    
#         num_last_reqs             integral                            32    'd1  
#         num_last_rsps             integral                            32    'd1  
#     i3c_scoreboard_h              i3c_scoreboard                      -     @665 
#       apb_analysis_fifo           uvm_tlm_analysis_fifo #(T)          -     @891 
#         analysis_export           uvm_analysis_imp                    -     @930 
#         get_ap                    uvm_analysis_port                   -     @922 
#         get_peek_export           uvm_get_peek_imp                    -     @906 
#         put_ap                    uvm_analysis_port                   -     @914 
#         put_export                uvm_put_imp                         -     @898 
#       target_analysis_fifo        uvm_tlm_analysis_fifo #(T)          -     @938 
#         analysis_export           uvm_analysis_imp                    -     @977 
#         get_ap                    uvm_analysis_port                   -     @969 
#         get_peek_export           uvm_get_peek_imp                    -     @953 
#         put_ap                    uvm_analysis_port                   -     @961 
#         put_export                uvm_put_imp                         -     @945 
#     i3c_target_agent_h[0]         i3c_target_agent                    -     @549 
#       i3c_target_cov_h            i3c_target_coverage                 -     @1138
#         analysis_imp              uvm_analysis_imp                    -     @1145
#       i3c_target_drv_proxy_h      i3c_target_driver_proxy             -     @1006
#         rsp_port                  uvm_analysis_port                   -     @1021
#         seq_item_port             uvm_seq_item_pull_port              -     @1013
#       i3c_target_mon_proxy_h      i3c_target_monitor_proxy            -     @987 
#         target_analysis_port      uvm_analysis_port                   -     @994 
#       i3c_target_seqr_h           i3c_target_sequencer                -     @1029
#         rsp_export                uvm_analysis_export                 -     @1036
#         seq_item_export           uvm_seq_item_pull_imp               -     @1130
#         arbitration_queue         array                               0     -    
#         lock_queue                array                               0     -    
#         num_last_reqs             integral                            32    'd1  
#         num_last_rsps             integral                            32    'd1  
#     topPredictor                  uvm_reg_predictor #(apb_master_tx)  -     @673 
#       bus_in                      uvm_analysis_imp                    -     @680 
#       reg_ap                      uvm_analysis_port                   -     @688 
#     top_virtual_seqr_h            top_virtual_sequencer               -     @556 
#       rsp_export                  uvm_analysis_export                 -     @563 
#       seq_item_export             uvm_seq_item_pull_imp               -     @657 
#       arbitration_queue           array                               0     -    
#       lock_queue                  array                               0     -    
#       num_last_reqs               integral                            32    'd1  
#       num_last_rsps               integral                            32    'd1  
# ---------------------------------------------------------------------------------
# 
# UVM_INFO ../../src/hvl_top/test/i3c_fifo_full_write_test.sv(16) @ 0: uvm_test_top [i3c_fifo_full_write_test] Starting ONLY i3c_fifo_full_write_virtual_seq
# UVM_INFO ../../src/hvl_top/apb_master//apb_master_monitor_proxy.sv(84) @ 0: uvm_test_top.i3c_env_h.apb_master_agent_h.apb_master_mon_proxy_h [apb_master_monitor_proxy] Inside the master_monitor_proxy
# UVM_INFO ../../src/hvl_top/test/ral_virtual_sequences//i3c_fifo_full_write_virtual_seq.sv(23) @ 0: uvm_test_top.i3c_env_h.top_virtual_seqr_h@@i3cfifofullwrite [i3c_fifo_full_write_virtual_seq] Starting FIFO FULL WRITE test
# UVM_INFO ../../src/hdl_top/apb_master_agent_bfm/apb_master_driver_bfm.sv(103) @ 90: reporter [DEBUG_MSHA] drive_apb_idle state = IDLE and state = 1
# UVM_INFO ../../src/hdl_top/apb_master_agent_bfm/apb_master_driver_bfm.sv(134) @ 110: reporter [DEBUG_MSHA] drive_apb_setup state = SETUP and state = 2
# [170] REG_WRITE: WDATAB <= 0
# UVM_INFO ../../src/hvl_top/apb_master//apb_master_driver_proxy.sv(119) @ 170: uvm_test_top.i3c_env_h.apb_master_agent_h.apb_master_drv_proxy_h [apb_master_driver_proxy] AFTER :: received req packet 
#  ---------------------------------------------------------------------
# Name                          Type           Size  Value             
# ---------------------------------------------------------------------
# apb_master_tx                 apb_master_tx  -     @1188             
#   pselx                       string         7     SLAVE_0           
#   paddr                       integral       32    'h30              
#   pwrite                      string         5     WRITE             
#   pwdata                      integral       32    'h0               
#   transfer_size               string         0     ""                
#   pstrb                       integral       4     'b1111            
#   pprot                       string         18    NORMAL_SECURE_DATA
#   prdata                      integral       32    'h0               
#   pslverr                     string         8     NO_ERROR          
#   no_of_wait_states_detected  integral       32    'd1               
# ---------------------------------------------------------------------
# 
# [190] FIFO WRITE: din=0 addr=0 wr_ptr=0
# [190] STATUS: wr_en=1 rd_en=0 full=0 empty=1 wr_ptr=0 rd_ptr=0
# UVM_INFO ../../src/hdl_top/apb_master_agent_bfm/apb_master_driver_bfm.sv(134) @ 190: reporter [DEBUG_MSHA] drive_apb_setup state = SETUP and state = 2
# [250] REG_WRITE: WDATAB <= 1
# UVM_INFO ../../src/hvl_top/apb_master//apb_master_driver_proxy.sv(119) @ 250: uvm_test_top.i3c_env_h.apb_master_agent_h.apb_master_drv_proxy_h [apb_master_driver_proxy] AFTER :: received req packet 
#  ---------------------------------------------------------------------
# Name                          Type           Size  Value             
# ---------------------------------------------------------------------
# apb_master_tx                 apb_master_tx  -     @1282             
#   pselx                       string         7     SLAVE_0           
#   paddr                       integral       32    'h30              
#   pwrite                      string         5     WRITE             
#   pwdata                      integral       32    'h1               
#   transfer_size               string         0     ""                
#   pstrb                       integral       4     'b1111            
#   pprot                       string         18    NORMAL_SECURE_DATA
#   prdata                      integral       32    'h0               
#   pslverr                     string         8     NO_ERROR          
#   no_of_wait_states_detected  integral       32    'd1               
# ---------------------------------------------------------------------
# 
# [270] FIFO WRITE: din=1 addr=1 wr_ptr=1
# [270] STATUS: wr_en=1 rd_en=0 full=0 empty=0 wr_ptr=1 rd_ptr=0
# UVM_INFO ../../src/hdl_top/apb_master_agent_bfm/apb_master_driver_bfm.sv(134) @ 270: reporter [DEBUG_MSHA] drive_apb_setup state = SETUP and state = 2
# [330] REG_WRITE: WDATAB <= 2
# UVM_INFO ../../src/hvl_top/apb_master//apb_master_driver_proxy.sv(119) @ 330: uvm_test_top.i3c_env_h.apb_master_agent_h.apb_master_drv_proxy_h [apb_master_driver_proxy] AFTER :: received req packet 
#  ---------------------------------------------------------------------
# Name                          Type           Size  Value             
# ---------------------------------------------------------------------
# apb_master_tx                 apb_master_tx  -     @1298             
#   pselx                       string         7     SLAVE_0           
#   paddr                       integral       32    'h30              
#   pwrite                      string         5     WRITE             
#   pwdata                      integral       32    'h2               
#   transfer_size               string         0     ""                
#   pstrb                       integral       4     'b1111            
#   pprot                       string         18    NORMAL_SECURE_DATA
#   prdata                      integral       32    'h0               
#   pslverr                     string         8     NO_ERROR          
#   no_of_wait_states_detected  integral       32    'd1               
# ---------------------------------------------------------------------
# 
# [350] FIFO WRITE: din=2 addr=2 wr_ptr=2
# [350] STATUS: wr_en=1 rd_en=0 full=0 empty=0 wr_ptr=2 rd_ptr=0
# UVM_INFO ../../src/hdl_top/apb_master_agent_bfm/apb_master_driver_bfm.sv(134) @ 350: reporter [DEBUG_MSHA] drive_apb_setup state = SETUP and state = 2
# [410] REG_WRITE: WDATAB <= 3
# UVM_INFO ../../src/hvl_top/apb_master//apb_master_driver_proxy.sv(119) @ 410: uvm_test_top.i3c_env_h.apb_master_agent_h.apb_master_drv_proxy_h [apb_master_driver_proxy] AFTER :: received req packet 
#  ---------------------------------------------------------------------
# Name                          Type           Size  Value             
# ---------------------------------------------------------------------
# apb_master_tx                 apb_master_tx  -     @1314             
#   pselx                       string         7     SLAVE_0           
#   paddr                       integral       32    'h30              
#   pwrite                      string         5     WRITE             
#   pwdata                      integral       32    'h3               
#   transfer_size               string         0     ""                
#   pstrb                       integral       4     'b1111            
#   pprot                       string         18    NORMAL_SECURE_DATA
#   prdata                      integral       32    'h0               
#   pslverr                     string         8     NO_ERROR          
#   no_of_wait_states_detected  integral       32    'd1               
# ---------------------------------------------------------------------
# 
# [430] FIFO WRITE: din=3 addr=3 wr_ptr=3
# [430] STATUS: wr_en=1 rd_en=0 full=0 empty=0 wr_ptr=3 rd_ptr=0
# UVM_INFO ../../src/hdl_top/apb_master_agent_bfm/apb_master_driver_bfm.sv(134) @ 430: reporter [DEBUG_MSHA] drive_apb_setup state = SETUP and state = 2
# [490] REG_WRITE: WDATAB <= 4
# UVM_INFO ../../src/hvl_top/apb_master//apb_master_driver_proxy.sv(119) @ 490: uvm_test_top.i3c_env_h.apb_master_agent_h.apb_master_drv_proxy_h [apb_master_driver_proxy] AFTER :: received req packet 
#  ---------------------------------------------------------------------
# Name                          Type           Size  Value             
# ---------------------------------------------------------------------
# apb_master_tx                 apb_master_tx  -     @1330             
#   pselx                       string         7     SLAVE_0           
#   paddr                       integral       32    'h30              
#   pwrite                      string         5     WRITE             
#   pwdata                      integral       32    'h4               
#   transfer_size               string         0     ""                
#   pstrb                       integral       4     'b1111            
#   pprot                       string         18    NORMAL_SECURE_DATA
#   prdata                      integral       32    'h0               
#   pslverr                     string         8     NO_ERROR          
#   no_of_wait_states_detected  integral       32    'd1               
# ---------------------------------------------------------------------
# 
# [510] FIFO WRITE: din=4 addr=4 wr_ptr=4
# [510] STATUS: wr_en=1 rd_en=0 full=0 empty=0 wr_ptr=4 rd_ptr=0
# UVM_INFO ../../src/hdl_top/apb_master_agent_bfm/apb_master_driver_bfm.sv(134) @ 510: reporter [DEBUG_MSHA] drive_apb_setup state = SETUP and state = 2
# [570] REG_WRITE: WDATAB <= 5
# UVM_INFO ../../src/hvl_top/apb_master//apb_master_driver_proxy.sv(119) @ 570: uvm_test_top.i3c_env_h.apb_master_agent_h.apb_master_drv_proxy_h [apb_master_driver_proxy] AFTER :: received req packet 
#  ---------------------------------------------------------------------
# Name                          Type           Size  Value             
# ---------------------------------------------------------------------
# apb_master_tx                 apb_master_tx  -     @1346             
#   pselx                       string         7     SLAVE_0           
#   paddr                       integral       32    'h30              
#   pwrite                      string         5     WRITE             
#   pwdata                      integral       32    'h5               
#   transfer_size               string         0     ""                
#   pstrb                       integral       4     'b1111            
#   pprot                       string         18    NORMAL_SECURE_DATA
#   prdata                      integral       32    'h0               
#   pslverr                     string         8     NO_ERROR          
#   no_of_wait_states_detected  integral       32    'd1               
# ---------------------------------------------------------------------
# 
# [590] FIFO WRITE: din=5 addr=5 wr_ptr=5
# [590] STATUS: wr_en=1 rd_en=0 full=0 empty=0 wr_ptr=5 rd_ptr=0
# UVM_INFO ../../src/hdl_top/apb_master_agent_bfm/apb_master_driver_bfm.sv(134) @ 590: reporter [DEBUG_MSHA] drive_apb_setup state = SETUP and state = 2
# [650] REG_WRITE: WDATAB <= 6
# UVM_INFO ../../src/hvl_top/apb_master//apb_master_driver_proxy.sv(119) @ 650: uvm_test_top.i3c_env_h.apb_master_agent_h.apb_master_drv_proxy_h [apb_master_driver_proxy] AFTER :: received req packet 
#  ---------------------------------------------------------------------
# Name                          Type           Size  Value             
# ---------------------------------------------------------------------
# apb_master_tx                 apb_master_tx  -     @1362             
#   pselx                       string         7     SLAVE_0           
#   paddr                       integral       32    'h30              
#   pwrite                      string         5     WRITE             
#   pwdata                      integral       32    'h6               
#   transfer_size               string         0     ""                
#   pstrb                       integral       4     'b1111            
#   pprot                       string         18    NORMAL_SECURE_DATA
#   prdata                      integral       32    'h0               
#   pslverr                     string         8     NO_ERROR          
#   no_of_wait_states_detected  integral       32    'd1               
# ---------------------------------------------------------------------
# 
# [670] FIFO WRITE: din=6 addr=6 wr_ptr=6
# [670] STATUS: wr_en=1 rd_en=0 full=0 empty=0 wr_ptr=6 rd_ptr=0
# UVM_INFO ../../src/hdl_top/apb_master_agent_bfm/apb_master_driver_bfm.sv(134) @ 670: reporter [DEBUG_MSHA] drive_apb_setup state = SETUP and state = 2
# [730] REG_WRITE: WDATAB <= 7
# UVM_INFO ../../src/hvl_top/apb_master//apb_master_driver_proxy.sv(119) @ 730: uvm_test_top.i3c_env_h.apb_master_agent_h.apb_master_drv_proxy_h [apb_master_driver_proxy] AFTER :: received req packet 
#  ---------------------------------------------------------------------
# Name                          Type           Size  Value             
# ---------------------------------------------------------------------
# apb_master_tx                 apb_master_tx  -     @1378             
#   pselx                       string         7     SLAVE_0           
#   paddr                       integral       32    'h30              
#   pwrite                      string         5     WRITE             
#   pwdata                      integral       32    'h7               
#   transfer_size               string         0     ""                
#   pstrb                       integral       4     'b1111            
#   pprot                       string         18    NORMAL_SECURE_DATA
#   prdata                      integral       32    'h0               
#   pslverr                     string         8     NO_ERROR          
#   no_of_wait_states_detected  integral       32    'd1               
# ---------------------------------------------------------------------
# 
# [750] FIFO WRITE: din=7 addr=7 wr_ptr=7
# [750] STATUS: wr_en=1 rd_en=0 full=0 empty=0 wr_ptr=7 rd_ptr=0
# UVM_INFO ../../src/hdl_top/apb_master_agent_bfm/apb_master_driver_bfm.sv(134) @ 750: reporter [DEBUG_MSHA] drive_apb_setup state = SETUP and state = 2
# [810] REG_WRITE: WDATAB <= 8
# UVM_INFO ../../src/hvl_top/apb_master//apb_master_driver_proxy.sv(119) @ 810: uvm_test_top.i3c_env_h.apb_master_agent_h.apb_master_drv_proxy_h [apb_master_driver_proxy] AFTER :: received req packet 
#  ---------------------------------------------------------------------
# Name                          Type           Size  Value             
# ---------------------------------------------------------------------
# apb_master_tx                 apb_master_tx  -     @1394             
#   pselx                       string         7     SLAVE_0           
#   paddr                       integral       32    'h30              
#   pwrite                      string         5     WRITE             
#   pwdata                      integral       32    'h8               
#   transfer_size               string         0     ""                
#   pstrb                       integral       4     'b1111            
#   pprot                       string         18    NORMAL_SECURE_DATA
#   prdata                      integral       32    'h0               
#   pslverr                     string         8     NO_ERROR          
#   no_of_wait_states_detected  integral       32    'd1               
# ---------------------------------------------------------------------
# 
# [830] FIFO WRITE: din=8 addr=8 wr_ptr=8
# [830] STATUS: wr_en=1 rd_en=0 full=0 empty=0 wr_ptr=8 rd_ptr=0
# UVM_INFO ../../src/hdl_top/apb_master_agent_bfm/apb_master_driver_bfm.sv(134) @ 830: reporter [DEBUG_MSHA] drive_apb_setup state = SETUP and state = 2
# [890] REG_WRITE: WDATAB <= 9
# UVM_INFO ../../src/hvl_top/apb_master//apb_master_driver_proxy.sv(119) @ 890: uvm_test_top.i3c_env_h.apb_master_agent_h.apb_master_drv_proxy_h [apb_master_driver_proxy] AFTER :: received req packet 
#  ---------------------------------------------------------------------
# Name                          Type           Size  Value             
# ---------------------------------------------------------------------
# apb_master_tx                 apb_master_tx  -     @1410             
#   pselx                       string         7     SLAVE_0           
#   paddr                       integral       32    'h30              
#   pwrite                      string         5     WRITE             
#   pwdata                      integral       32    'h9               
#   transfer_size               string         0     ""                
#   pstrb                       integral       4     'b1111            
#   pprot                       string         18    NORMAL_SECURE_DATA
#   prdata                      integral       32    'h0               
#   pslverr                     string         8     NO_ERROR          
#   no_of_wait_states_detected  integral       32    'd1               
# ---------------------------------------------------------------------
# 
# [910] FIFO WRITE: din=9 addr=9 wr_ptr=9
# [910] STATUS: wr_en=1 rd_en=0 full=0 empty=0 wr_ptr=9 rd_ptr=0
# UVM_INFO ../../src/hdl_top/apb_master_agent_bfm/apb_master_driver_bfm.sv(134) @ 910: reporter [DEBUG_MSHA] drive_apb_setup state = SETUP and state = 2
# [970] REG_WRITE: WDATAB <= a
# UVM_INFO ../../src/hvl_top/apb_master//apb_master_driver_proxy.sv(119) @ 970: uvm_test_top.i3c_env_h.apb_master_agent_h.apb_master_drv_proxy_h [apb_master_driver_proxy] AFTER :: received req packet 
#  ---------------------------------------------------------------------
# Name                          Type           Size  Value             
# ---------------------------------------------------------------------
# apb_master_tx                 apb_master_tx  -     @1426             
#   pselx                       string         7     SLAVE_0           
#   paddr                       integral       32    'h30              
#   pwrite                      string         5     WRITE             
#   pwdata                      integral       32    'ha               
#   transfer_size               string         0     ""                
#   pstrb                       integral       4     'b1111            
#   pprot                       string         18    NORMAL_SECURE_DATA
#   prdata                      integral       32    'h0               
#   pslverr                     string         8     NO_ERROR          
#   no_of_wait_states_detected  integral       32    'd1               
# ---------------------------------------------------------------------
# 
# [990] FIFO WRITE: din=a addr=10 wr_ptr=10
# [990] STATUS: wr_en=1 rd_en=0 full=0 empty=0 wr_ptr=10 rd_ptr=0
# UVM_INFO ../../src/hdl_top/apb_master_agent_bfm/apb_master_driver_bfm.sv(134) @ 990: reporter [DEBUG_MSHA] drive_apb_setup state = SETUP and state = 2
# [1050] REG_WRITE: WDATAB <= b
# UVM_INFO ../../src/hvl_top/apb_master//apb_master_driver_proxy.sv(119) @ 1050: uvm_test_top.i3c_env_h.apb_master_agent_h.apb_master_drv_proxy_h [apb_master_driver_proxy] AFTER :: received req packet 
#  ---------------------------------------------------------------------
# Name                          Type           Size  Value             
# ---------------------------------------------------------------------
# apb_master_tx                 apb_master_tx  -     @1442             
#   pselx                       string         7     SLAVE_0           
#   paddr                       integral       32    'h30              
#   pwrite                      string         5     WRITE             
#   pwdata                      integral       32    'hb               
#   transfer_size               string         0     ""                
#   pstrb                       integral       4     'b1111            
#   pprot                       string         18    NORMAL_SECURE_DATA
#   prdata                      integral       32    'h0               
#   pslverr                     string         8     NO_ERROR          
#   no_of_wait_states_detected  integral       32    'd1               
# ---------------------------------------------------------------------
# 
# [1070] FIFO WRITE: din=b addr=11 wr_ptr=11
# [1070] STATUS: wr_en=1 rd_en=0 full=0 empty=0 wr_ptr=11 rd_ptr=0
# UVM_INFO ../../src/hdl_top/apb_master_agent_bfm/apb_master_driver_bfm.sv(134) @ 1070: reporter [DEBUG_MSHA] drive_apb_setup state = SETUP and state = 2
# [1130] REG_WRITE: WDATAB <= c
# UVM_INFO ../../src/hvl_top/apb_master//apb_master_driver_proxy.sv(119) @ 1130: uvm_test_top.i3c_env_h.apb_master_agent_h.apb_master_drv_proxy_h [apb_master_driver_proxy] AFTER :: received req packet 
#  ---------------------------------------------------------------------
# Name                          Type           Size  Value             
# ---------------------------------------------------------------------
# apb_master_tx                 apb_master_tx  -     @1458             
#   pselx                       string         7     SLAVE_0           
#   paddr                       integral       32    'h30              
#   pwrite                      string         5     WRITE             
#   pwdata                      integral       32    'hc               
#   transfer_size               string         0     ""                
#   pstrb                       integral       4     'b1111            
#   pprot                       string         18    NORMAL_SECURE_DATA
#   prdata                      integral       32    'h0               
#   pslverr                     string         8     NO_ERROR          
#   no_of_wait_states_detected  integral       32    'd1               
# ---------------------------------------------------------------------
# 
# [1150] FIFO WRITE: din=c addr=12 wr_ptr=12
# [1150] STATUS: wr_en=1 rd_en=0 full=0 empty=0 wr_ptr=12 rd_ptr=0
# UVM_INFO ../../src/hdl_top/apb_master_agent_bfm/apb_master_driver_bfm.sv(134) @ 1150: reporter [DEBUG_MSHA] drive_apb_setup state = SETUP and state = 2
# [1210] REG_WRITE: WDATAB <= d
# UVM_INFO ../../src/hvl_top/apb_master//apb_master_driver_proxy.sv(119) @ 1210: uvm_test_top.i3c_env_h.apb_master_agent_h.apb_master_drv_proxy_h [apb_master_driver_proxy] AFTER :: received req packet 
#  ---------------------------------------------------------------------
# Name                          Type           Size  Value             
# ---------------------------------------------------------------------
# apb_master_tx                 apb_master_tx  -     @1474             
#   pselx                       string         7     SLAVE_0           
#   paddr                       integral       32    'h30              
#   pwrite                      string         5     WRITE             
#   pwdata                      integral       32    'hd               
#   transfer_size               string         0     ""                
#   pstrb                       integral       4     'b1111            
#   pprot                       string         18    NORMAL_SECURE_DATA
#   prdata                      integral       32    'h0               
#   pslverr                     string         8     NO_ERROR          
#   no_of_wait_states_detected  integral       32    'd1               
# ---------------------------------------------------------------------
# 
# [1230] FIFO WRITE: din=d addr=13 wr_ptr=13
# [1230] STATUS: wr_en=1 rd_en=0 full=0 empty=0 wr_ptr=13 rd_ptr=0
# UVM_INFO ../../src/hdl_top/apb_master_agent_bfm/apb_master_driver_bfm.sv(134) @ 1230: reporter [DEBUG_MSHA] drive_apb_setup state = SETUP and state = 2
# [1290] REG_WRITE: WDATAB <= e
# UVM_INFO ../../src/hvl_top/apb_master//apb_master_driver_proxy.sv(119) @ 1290: uvm_test_top.i3c_env_h.apb_master_agent_h.apb_master_drv_proxy_h [apb_master_driver_proxy] AFTER :: received req packet 
#  ---------------------------------------------------------------------
# Name                          Type           Size  Value             
# ---------------------------------------------------------------------
# apb_master_tx                 apb_master_tx  -     @1490             
#   pselx                       string         7     SLAVE_0           
#   paddr                       integral       32    'h30              
#   pwrite                      string         5     WRITE             
#   pwdata                      integral       32    'he               
#   transfer_size               string         0     ""                
#   pstrb                       integral       4     'b1111            
#   pprot                       string         18    NORMAL_SECURE_DATA
#   prdata                      integral       32    'h0               
#   pslverr                     string         8     NO_ERROR          
#   no_of_wait_states_detected  integral       32    'd1               
# ---------------------------------------------------------------------
# 
# [1310] FIFO WRITE: din=e addr=14 wr_ptr=14
# [1310] STATUS: wr_en=1 rd_en=0 full=0 empty=0 wr_ptr=14 rd_ptr=0
# UVM_INFO ../../src/hdl_top/apb_master_agent_bfm/apb_master_driver_bfm.sv(134) @ 1310: reporter [DEBUG_MSHA] drive_apb_setup state = SETUP and state = 2
# [1370] REG_WRITE: WDATAB <= f
# UVM_INFO ../../src/hvl_top/apb_master//apb_master_driver_proxy.sv(119) @ 1370: uvm_test_top.i3c_env_h.apb_master_agent_h.apb_master_drv_proxy_h [apb_master_driver_proxy] AFTER :: received req packet 
#  ---------------------------------------------------------------------
# Name                          Type           Size  Value             
# ---------------------------------------------------------------------
# apb_master_tx                 apb_master_tx  -     @1506             
#   pselx                       string         7     SLAVE_0           
#   paddr                       integral       32    'h30              
#   pwrite                      string         5     WRITE             
#   pwdata                      integral       32    'hf               
#   transfer_size               string         0     ""                
#   pstrb                       integral       4     'b1111            
#   pprot                       string         18    NORMAL_SECURE_DATA
#   prdata                      integral       32    'h0               
#   pslverr                     string         8     NO_ERROR          
#   no_of_wait_states_detected  integral       32    'd1               
# ---------------------------------------------------------------------
# 
# UVM_INFO ../../src/hvl_top/test/ral_virtual_sequences//i3c_fifo_full_write_virtual_seq.sv(35) @ 1370: uvm_test_top.i3c_env_h.top_virtual_seqr_h@@i3cfifofullwrite [FIFO_DEBUG] FIFO filled to depth 16
# [1390] FIFO WRITE: din=f addr=15 wr_ptr=15
# [1390] STATUS: wr_en=1 rd_en=0 full=0 empty=0 wr_ptr=15 rd_ptr=0
# UVM_INFO ../../src/hdl_top/apb_master_agent_bfm/apb_master_driver_bfm.sv(134) @ 1390: reporter [DEBUG_MSHA] drive_apb_setup state = SETUP and state = 2
# [1450] REG_WRITE: WDATAB <= ff
# UVM_INFO ../../src/hvl_top/apb_master//apb_master_driver_proxy.sv(119) @ 1450: uvm_test_top.i3c_env_h.apb_master_agent_h.apb_master_drv_proxy_h [apb_master_driver_proxy] AFTER :: received req packet 
#  ---------------------------------------------------------------------
# Name                          Type           Size  Value             
# ---------------------------------------------------------------------
# apb_master_tx                 apb_master_tx  -     @1522             
#   pselx                       string         7     SLAVE_0           
#   paddr                       integral       32    'h30              
#   pwrite                      string         5     WRITE             
#   pwdata                      integral       32    'hff              
#   transfer_size               string         0     ""                
#   pstrb                       integral       4     'b1111            
#   pprot                       string         18    NORMAL_SECURE_DATA
#   prdata                      integral       32    'h0               
#   pslverr                     string         8     NO_ERROR          
#   no_of_wait_states_detected  integral       32    'd1               
# ---------------------------------------------------------------------
# 
# UVM_INFO ../../src/hvl_top/test/ral_virtual_sequences//i3c_fifo_full_write_virtual_seq.sv(48) @ 1450: uvm_test_top.i3c_env_h.top_virtual_seqr_h@@i3cfifofullwrite [FIFO_DEBUG] Attempted write beyond FIFO depth
# UVM_INFO ../../src/hvl_top/test/ral_virtual_sequences//i3c_fifo_full_write_virtual_seq.sv(76) @ 1450: uvm_test_top.i3c_env_h.top_virtual_seqr_h@@i3cfifofullwrite [CTRL_DEBUG] CTRL value = 80000868
# UVM_INFO ../../src/hvl_top/target/target_sequences//i3c_target_writeOperationWith8bitsData_seq.sv(46) @ 1450: uvm_test_top.i3c_env_h.i3c_target_agent_h[0].i3c_target_seqr_h@@target_seq [i3c_target_writeOperationWith8bitsData_seq] Before randomization - req created
# UVM_INFO ../../src/hvl_top/target/target_sequences//i3c_target_writeOperationWith8bitsData_seq.sv(66) @ 1450: uvm_test_top.i3c_env_h.i3c_target_agent_h[0].i3c_target_seqr_h@@target_seq [i3c_target_writeOperationWith8bitsData_seq] Randomization SUCCESS - after overrides
# -----------------------------------------------------------------------------------------------------------------------------
# Name                           Type           Size  Value                                                                    
# -----------------------------------------------------------------------------------------------------------------------------
# req                            i3c_target_tx  -     @1547                                                                    
#   begin_time                   time           64    1450                                                                     
#   depth                        int            32    'd2                                                                      
#   parent sequence (name)       string         10    target_seq                                                               
#   parent sequence (full name)  string         73    uvm_test_top.i3c_env_h.i3c_target_agent_h[0].i3c_target_seqr_h.target_seq
#   sequencer                    string         62    uvm_test_top.i3c_env_h.i3c_target_agent_h[0].i3c_target_seqr_h           
#   txn_type                     string         3     SDR                                                                      
#   targetAddress                integral       7     'h68                                                                     
#   targetAddressStatus          string         3     ACK                                                                      
#   operation                    string         5     WRITE                                                                    
#   writeDataStatus[0]           string         3     ACK                                                                      
#   writeDataStatus[1]           string         3     ACK                                                                      
#   writeDataStatus[2]           string         3     ACK                                                                      
#   writeDataStatus[3]           string         3     ACK                                                                      
#   writeDataStatus[4]           string         3     ACK                                                                      
#   writeDataStatus[5]           string         3     ACK                                                                      
#   writeDataStatus[6]           string         3     ACK                                                                      
#   writeDataStatus[7]           string         3     ACK                                                                      
#   writeDataStatus[8]           string         3     ACK                                                                      
#   writeDataStatus[9]           string         3     ACK                                                                      
#   writeDataStatus[10]          string         3     ACK                                                                      
#   writeDataStatus[11]          string         3     ACK                                                                      
#   writeDataStatus[12]          string         3     ACK                                                                      
#   writeDataStatus[13]          string         3     ACK                                                                      
#   writeDataStatus[14]          string         3     ACK                                                                      
#   writeDataStatus[15]          string         3     ACK                                                                      
#   writeDataStatus[16]          string         3     ACK                                                                      
# -----------------------------------------------------------------------------------------------------------------------------
# UVM_INFO ../../src/hvl_top/target//i3c_target_driver_proxy.sv(61) @ 1450: uvm_test_top.i3c_env_h.i3c_target_agent_h[0].i3c_target_drv_proxy_h [TGT_DRV_PROXY] Got item from sequencer
# UVM_INFO ../../src/hvl_top/target//i3c_target_driver_proxy.sv(110) @ 1450: uvm_test_top.i3c_env_h.i3c_target_agent_h[0].i3c_target_drv_proxy_h [TGT_DRV_PROXY] Transaction type = SDR, calling drive_data
# [1470] STATUS: wr_en=1 rd_en=0 full=1 empty=0 wr_ptr=16 rd_ptr=0
# UVM_INFO ../../src/hdl_top/apb_master_agent_bfm/apb_master_driver_bfm.sv(134) @ 1470: reporter [DEBUG_MSHA] drive_apb_setup state = SETUP and state = 2
# UVM_INFO ../../src/hvl_top/env/i3c_scoreboard.sv(169) @ 1520: uvm_test_top.i3c_env_h.i3c_scoreboard_h [SB] CTRL decoded: addr=0x68 dir=0 len=16 cmd_type=0x0 ccc=0x0
# UVM_INFO ../../src/hvl_top/apb_master//apb_master_driver_proxy.sv(119) @ 1530: uvm_test_top.i3c_env_h.apb_master_agent_h.apb_master_drv_proxy_h [apb_master_driver_proxy] AFTER :: received req packet 
#  ---------------------------------------------------------------------
# Name                          Type           Size  Value             
# ---------------------------------------------------------------------
# apb_master_tx                 apb_master_tx  -     @1538             
#   pselx                       string         7     SLAVE_0           
#   paddr                       integral       32    'hc               
#   pwrite                      string         5     WRITE             
#   pwdata                      integral       32    'h80000868        
#   transfer_size               string         0     ""                
#   pstrb                       integral       4     'b1111            
#   pprot                       string         18    NORMAL_SECURE_DATA
#   prdata                      integral       32    'h0               
#   pslverr                     string         8     NO_ERROR          
#   no_of_wait_states_detected  integral       32    'd1               
# ---------------------------------------------------------------------
# 
# RTL @ 1550: cmd_start after DAA
# RTL @ 1570: start_sdr after DAA
# MONITOR :: checking start at time 1620 scl_local=11 sda_local=10
# UVM_INFO ../../src/hdl_top/target_agent_bfm/i3c_target_driver_bfm.sv(477) @ 2740: reporter [I3C_TARGET_DRIVER_BFM] DEBUG :: local_addr = 0x68
# UVM_INFO ../../src/hdl_top/target_agent_bfm/i3c_target_driver_bfm.sv(482) @ 2740: reporter [I3C_TARGET_DRIVER_BFM] DEBUG :: cfg target_addr = 0x68
# [3130] FIFO READ : dout=0 addr=0 rd_ptr=0
# [3130] STATUS: wr_en=0 rd_en=1 full=1 empty=0 wr_ptr=16 rd_ptr=0
# UVM_INFO ../../src/hdl_top/target_agent_bfm/i3c_target_driver_bfm.sv(541) @ 4340: reporter [I3C_TARGET_DRIVER_BFM] DEBUG :: write data = 0x0
# [4570] FIFO READ : dout=1 addr=1 rd_ptr=1
# [4570] STATUS: wr_en=0 rd_en=1 full=0 empty=0 wr_ptr=16 rd_ptr=1
# UVM_INFO ../../src/hdl_top/target_agent_bfm/i3c_target_driver_bfm.sv(541) @ 5780: reporter [I3C_TARGET_DRIVER_BFM] DEBUG :: write data = 0x1
# [6010] FIFO READ : dout=2 addr=2 rd_ptr=2
# [6010] STATUS: wr_en=0 rd_en=1 full=0 empty=0 wr_ptr=16 rd_ptr=2
# UVM_INFO ../../src/hdl_top/target_agent_bfm/i3c_target_driver_bfm.sv(541) @ 7220: reporter [I3C_TARGET_DRIVER_BFM] DEBUG :: write data = 0x2
# [7450] FIFO READ : dout=3 addr=3 rd_ptr=3
# [7450] STATUS: wr_en=0 rd_en=1 full=0 empty=0 wr_ptr=16 rd_ptr=3
# UVM_INFO ../../src/hdl_top/target_agent_bfm/i3c_target_driver_bfm.sv(541) @ 8660: reporter [I3C_TARGET_DRIVER_BFM] DEBUG :: write data = 0x3
# [8890] FIFO READ : dout=4 addr=4 rd_ptr=4
# [8890] STATUS: wr_en=0 rd_en=1 full=0 empty=0 wr_ptr=16 rd_ptr=4
# UVM_INFO ../../src/hdl_top/target_agent_bfm/i3c_target_driver_bfm.sv(541) @ 10100: reporter [I3C_TARGET_DRIVER_BFM] DEBUG :: write data = 0x4
# [10330] FIFO READ : dout=5 addr=5 rd_ptr=5
# [10330] STATUS: wr_en=0 rd_en=1 full=0 empty=0 wr_ptr=16 rd_ptr=5
# UVM_INFO ../../src/hvl_top/test/ral_virtual_sequences//i3c_fifo_full_write_virtual_seq.sv(93) @ 11530: uvm_test_top.i3c_env_h.top_virtual_seqr_h@@i3cfifofullwrite [i3c_fifo_full_write_virtual_seq] FIFO FULL WRITE test completed
# UVM_INFO ../../src/hdl_top/target_agent_bfm/i3c_target_driver_bfm.sv(541) @ 11540: reporter [I3C_TARGET_DRIVER_BFM] DEBUG :: write data = 0x5
# [11770] FIFO READ : dout=6 addr=6 rd_ptr=6
# [11770] STATUS: wr_en=0 rd_en=1 full=0 empty=0 wr_ptr=16 rd_ptr=6
# UVM_INFO ../../src/hdl_top/target_agent_bfm/i3c_target_driver_bfm.sv(541) @ 12980: reporter [I3C_TARGET_DRIVER_BFM] DEBUG :: write data = 0x6
# [13210] FIFO READ : dout=7 addr=7 rd_ptr=7
# [13210] STATUS: wr_en=0 rd_en=1 full=0 empty=0 wr_ptr=16 rd_ptr=7
# UVM_INFO ../../src/hdl_top/target_agent_bfm/i3c_target_driver_bfm.sv(541) @ 14420: reporter [I3C_TARGET_DRIVER_BFM] DEBUG :: write data = 0x7
# [14650] FIFO READ : dout=8 addr=8 rd_ptr=8
# [14650] STATUS: wr_en=0 rd_en=1 full=0 empty=0 wr_ptr=16 rd_ptr=8
# UVM_INFO ../../src/hdl_top/target_agent_bfm/i3c_target_driver_bfm.sv(541) @ 15860: reporter [I3C_TARGET_DRIVER_BFM] DEBUG :: write data = 0x8
# [16090] FIFO READ : dout=9 addr=9 rd_ptr=9
# [16090] STATUS: wr_en=0 rd_en=1 full=0 empty=0 wr_ptr=16 rd_ptr=9
# UVM_INFO ../../src/hdl_top/target_agent_bfm/i3c_target_driver_bfm.sv(541) @ 17300: reporter [I3C_TARGET_DRIVER_BFM] DEBUG :: write data = 0x9
# [17530] FIFO READ : dout=a addr=10 rd_ptr=10
# [17530] STATUS: wr_en=0 rd_en=1 full=0 empty=0 wr_ptr=16 rd_ptr=10
# UVM_INFO ../../src/hdl_top/target_agent_bfm/i3c_target_driver_bfm.sv(541) @ 18740: reporter [I3C_TARGET_DRIVER_BFM] DEBUG :: write data = 0xa
# [18970] FIFO READ : dout=b addr=11 rd_ptr=11
# [18970] STATUS: wr_en=0 rd_en=1 full=0 empty=0 wr_ptr=16 rd_ptr=11
# UVM_INFO ../../src/hdl_top/target_agent_bfm/i3c_target_driver_bfm.sv(541) @ 20180: reporter [I3C_TARGET_DRIVER_BFM] DEBUG :: write data = 0xb
# [20410] FIFO READ : dout=c addr=12 rd_ptr=12
# [20410] STATUS: wr_en=0 rd_en=1 full=0 empty=0 wr_ptr=16 rd_ptr=12
# UVM_INFO ../../src/hdl_top/target_agent_bfm/i3c_target_driver_bfm.sv(541) @ 21620: reporter [I3C_TARGET_DRIVER_BFM] DEBUG :: write data = 0xc
# [21850] FIFO READ : dout=d addr=13 rd_ptr=13
# [21850] STATUS: wr_en=0 rd_en=1 full=0 empty=0 wr_ptr=16 rd_ptr=13
# UVM_INFO ../../src/hdl_top/target_agent_bfm/i3c_target_driver_bfm.sv(541) @ 23060: reporter [I3C_TARGET_DRIVER_BFM] DEBUG :: write data = 0xd
# [23290] FIFO READ : dout=e addr=14 rd_ptr=14
# [23290] STATUS: wr_en=0 rd_en=1 full=0 empty=0 wr_ptr=16 rd_ptr=14
# UVM_INFO ../../src/hdl_top/target_agent_bfm/i3c_target_driver_bfm.sv(541) @ 24500: reporter [I3C_TARGET_DRIVER_BFM] DEBUG :: write data = 0xe
# [24730] FIFO READ : dout=f addr=15 rd_ptr=15
# [24730] STATUS: wr_en=0 rd_en=1 full=0 empty=0 wr_ptr=16 rd_ptr=15
# UVM_INFO ../../src/hdl_top/target_agent_bfm/i3c_target_driver_bfm.sv(541) @ 25940: reporter [I3C_TARGET_DRIVER_BFM] DEBUG :: write data = 0xf
# UVM_INFO ../../src/hvl_top/target//i3c_target_coverage.sv(301) @ 26281: uvm_test_top.i3c_env_h.i3c_target_agent_h[0].i3c_target_cov_h [DEBUG_m_coverage] I3C_target_TX {i3c_target_tx} 1564 1 1568 @uvm_status_container@1 @uvm_object_string_pool__1@157 @uvm_event@166 @uvm_event@167 -1 18446744073709551615 18446744073709551615 18446744073709551615 null 0 0 0 null -1 0 -1 null null 0 {} null null 0 0 {0 0 0 0 0 0 0 0 0 0 0 0 0 0 0 0} ACK {ACK ACK ACK ACK ACK ACK ACK ACK ACK ACK ACK ACK ACK ACK ACK ACK} WRITE 104 {0 1 2 3 4 5 6 7 8 9 10 11 12 13 14 15} {ACK ACK ACK ACK ACK ACK ACK ACK ACK ACK ACK ACK ACK ACK ACK ACK} 0 SDR 0 0 0 0 0 {i3c_target_tx}
# UVM_INFO ../../src/hvl_top/target//i3c_target_driver_proxy.sv(119) @ 26281: uvm_test_top.i3c_env_h.i3c_target_agent_h[0].i3c_target_drv_proxy_h [TGT_DRV_PROXY] item_done called
# UVM_INFO ../../src/hvl_top/env/i3c_scoreboard.sv(357) @ 26281: uvm_test_top.i3c_env_h.i3c_scoreboard_h [SB_ADDR_MATCH] Address match: 0x68
# UVM_INFO ../../src/hvl_top/env/i3c_scoreboard.sv(370) @ 26281: uvm_test_top.i3c_env_h.i3c_scoreboard_h [SB_OP_MATCH] Operation match: WRITE
# UVM_INFO ../../src/hvl_top/env/i3c_scoreboard.sv(382) @ 26281: uvm_test_top.i3c_env_h.i3c_scoreboard_h [SB] Write: APB sent 17 bytes, CTRL length=16, target received 16 bytes
# UVM_INFO ../../src/hvl_top/env/i3c_scoreboard.sv(394) @ 26281: uvm_test_top.i3c_env_h.i3c_scoreboard_h [SB_WDATA_MATCH] writeData[0]: expected 0x0 got 0x0
# UVM_INFO ../../src/hvl_top/env/i3c_scoreboard.sv(394) @ 26281: uvm_test_top.i3c_env_h.i3c_scoreboard_h [SB_WDATA_MATCH] writeData[1]: expected 0x1 got 0x1
# UVM_INFO ../../src/hvl_top/env/i3c_scoreboard.sv(394) @ 26281: uvm_test_top.i3c_env_h.i3c_scoreboard_h [SB_WDATA_MATCH] writeData[2]: expected 0x2 got 0x2
# UVM_INFO ../../src/hvl_top/env/i3c_scoreboard.sv(394) @ 26281: uvm_test_top.i3c_env_h.i3c_scoreboard_h [SB_WDATA_MATCH] writeData[3]: expected 0x3 got 0x3
# UVM_INFO ../../src/hvl_top/env/i3c_scoreboard.sv(394) @ 26281: uvm_test_top.i3c_env_h.i3c_scoreboard_h [SB_WDATA_MATCH] writeData[4]: expected 0x4 got 0x4
# UVM_INFO ../../src/hvl_top/env/i3c_scoreboard.sv(394) @ 26281: uvm_test_top.i3c_env_h.i3c_scoreboard_h [SB_WDATA_MATCH] writeData[5]: expected 0x5 got 0x5
# UVM_INFO ../../src/hvl_top/env/i3c_scoreboard.sv(394) @ 26281: uvm_test_top.i3c_env_h.i3c_scoreboard_h [SB_WDATA_MATCH] writeData[6]: expected 0x6 got 0x6
# UVM_INFO ../../src/hvl_top/env/i3c_scoreboard.sv(394) @ 26281: uvm_test_top.i3c_env_h.i3c_scoreboard_h [SB_WDATA_MATCH] writeData[7]: expected 0x7 got 0x7
# UVM_INFO ../../src/hvl_top/env/i3c_scoreboard.sv(394) @ 26281: uvm_test_top.i3c_env_h.i3c_scoreboard_h [SB_WDATA_MATCH] writeData[8]: expected 0x8 got 0x8
# UVM_INFO ../../src/hvl_top/env/i3c_scoreboard.sv(394) @ 26281: uvm_test_top.i3c_env_h.i3c_scoreboard_h [SB_WDATA_MATCH] writeData[9]: expected 0x9 got 0x9
# UVM_INFO ../../src/hvl_top/env/i3c_scoreboard.sv(394) @ 26281: uvm_test_top.i3c_env_h.i3c_scoreboard_h [SB_WDATA_MATCH] writeData[10]: expected 0xa got 0xa
# UVM_INFO ../../src/hvl_top/env/i3c_scoreboard.sv(394) @ 26281: uvm_test_top.i3c_env_h.i3c_scoreboard_h [SB_WDATA_MATCH] writeData[11]: expected 0xb got 0xb
# UVM_INFO ../../src/hvl_top/env/i3c_scoreboard.sv(394) @ 26281: uvm_test_top.i3c_env_h.i3c_scoreboard_h [SB_WDATA_MATCH] writeData[12]: expected 0xc got 0xc
# UVM_INFO ../../src/hvl_top/env/i3c_scoreboard.sv(394) @ 26281: uvm_test_top.i3c_env_h.i3c_scoreboard_h [SB_WDATA_MATCH] writeData[13]: expected 0xd got 0xd
# UVM_INFO ../../src/hvl_top/env/i3c_scoreboard.sv(394) @ 26281: uvm_test_top.i3c_env_h.i3c_scoreboard_h [SB_WDATA_MATCH] writeData[14]: expected 0xe got 0xe
# UVM_INFO ../../src/hvl_top/env/i3c_scoreboard.sv(394) @ 26281: uvm_test_top.i3c_env_h.i3c_scoreboard_h [SB_WDATA_MATCH] writeData[15]: expected 0xf got 0xf
# UVM_INFO ../../src/hvl_top/env/i3c_scoreboard.sv(408) @ 26281: uvm_test_top.i3c_env_h.i3c_scoreboard_h [SB_FIFO_OVERFLOW] APB sent 17 bytes, target got 16, RTL dropped 1
# UVM_INFO ../../src/hvl_top/target/target_sequences//i3c_target_writeOperationWith8bitsData_seq.sv(71) @ 26281: uvm_test_top.i3c_env_h.i3c_target_agent_h[0].i3c_target_seqr_h@@target_seq [i3c_target_writeOperationWith8bitsData_seq] finish_item returned - item sent to driver
# UVM_INFO verilog_src/uvm-1.1d/src/base/uvm_objection.svh(1268) @ 64530: reporter [TEST_DONE] 'run' phase is ready to proceed to the 'extract' phase
# UVM_INFO ../../src/hvl_top/env/i3c_scoreboard.sv(487) @ 64530: uvm_test_top.i3c_env_h.i3c_scoreboard_h [SB_SUMMARY] 
# ============= SCOREBOARD SUMMARY =============
#   APB transactions seen      : 18
#   I3C target transactions    : 1
#   -- SDR --
#   Write byte pass / fail     : 16 / 0
#   Read  byte pass / fail     : 0 / 0
#   -- DAA --
#   Devices seen               : 0
#   PID/BCR/DCR pass / fail    : 0 / 0
#   Dyn address pass / fail    : 0 / 0
#   Parity / ACK pass / fail   : 0 / 0
# ==============================================
# UVM_INFO ../../src/hvl_top/apb_master//apb_master_coverage.sv(121) @ 64530: uvm_test_top.i3c_env_h.apb_master_agent_h.apb_master_cov_h [apb_master_coverage] APB Master Agent Coverage = 24.13 %
# 
# --------------------------------------
# target COVERAGE
# --------------------------------------
# 
# UVM_INFO ../../src/hvl_top/target//i3c_target_coverage.sv(337) @ 64530: uvm_test_top.i3c_env_h.i3c_target_agent_h[0].i3c_target_cov_h [i3c_target_coverage] target Agent SDR Coverage = 35.19 %
# UVM_INFO ../../src/hvl_top/target//i3c_target_coverage.sv(341) @ 64530: uvm_test_top.i3c_env_h.i3c_target_agent_h[0].i3c_target_cov_h [i3c_target_coverage] target Agent DAA Coverage = 0.00 %
# UVM_INFO ../../src/hvl_top/target//i3c_target_coverage.sv(346) @ 64530: uvm_test_top.i3c_env_h.i3c_target_agent_h[0].i3c_target_cov_h [i3c_target_coverage] target Agent Total Coverage = 17.59 %
# 
# --- UVM Report Summary ---
# 
# ** Report counts by severity
# UVM_INFO :  107
# UVM_WARNING :    0
# UVM_ERROR :    0
# UVM_FATAL :    0
# ** Report counts by id
# [APB_MASTER_DRIVER_BFM]     1
# [APB_MASTER_MONITOR_BFM]     1
# [CTRL_DEBUG]     1
# [DEBUG_MSHA]    19
# [DEBUG_m_coverage]     1
# [FIFO_DEBUG]     2
# [I3C_TARGET_DRIVER_BFM]    18
# [Questa UVM]     2
# [RNTST]     1
# [SB]     2
# [SB_ADDR_MATCH]     1
# [SB_DAA_INIT]     1
# [SB_FIFO_OVERFLOW]     1
# [SB_OP_MATCH]     1
# [SB_SUMMARY]     1
# [SB_WDATA_MATCH]    16
# [TEST_DONE]     1
# [TGT_DRV_PROXY]     3
# [UVMTOP]     1
# [apb master agent bfm]     1
# [apb_master_coverage]     1
# [apb_master_driver_proxy]    18
# [apb_master_monitor_proxy]     1
# [i3c_fifo_full_write_test]     4
# [i3c_fifo_full_write_virtual_seq]     2
# [i3c_target_coverage]     3
# [i3c_target_writeOperationWith8bitsData_seq]     3
# ** Note: $finish    : /tools/mentor/questasim_10.6c/questasim/linux/../verilog_src/uvm-1.1d/src/base/uvm_root.svh(430)
#    Time: 64530 ns  Iteration: 53  Instance: /hvl_top
# Saving coverage database on exit...
# End time: 12:01:51 on Apr 30,2026, Elapsed time: 0:00:02
# Errors: 0, Warnings: 4
